T22D4 000:004.448   SEGGER J-Link V7.82 Log File
T22D4 000:004.559   DLL Compiled: Oct 13 2022 13:32:51
T22D4 000:004.567   Logging started @ 2023-09-20 09:44
T22D4 000:004.573 - 4.577ms
T22D4 000:004.583 JLINK_SetWarnOutHandler(...)
T22D4 000:004.591 - 0.011ms
T22D4 000:004.598 JLINK_OpenEx(...)
T22D4 000:006.761   Firmware: J-Link V9 compiled May  7 2021 16:26:12
T22D4 000:007.296   Firmware: J-Link V9 compiled May  7 2021 16:26:12
T22D4 000:007.416   Decompressing FW timestamp took 89 us
T22D4 000:016.038   Hardware: V9.40
T22D4 000:016.060   S/N: 69406604
T22D4 000:016.071   OEM: SEGGER
T22D4 000:016.081   Feature(s): RDI, GDB, FlashDL, FlashBP, JFlash
T22D4 000:018.328   TELNET listener socket opened on port 19021
T22D4 000:018.390   WEBSRV WEBSRV_Init(): Starting webserver thread(s)
T22D4 000:018.481   WEBSRV Webserver running on local port 19080
T22D4 000:032.738 - 28.162ms returns "O.K."
T22D4 000:032.776 JLINK_GetEmuCaps()
T22D4 000:032.784 - 0.011ms returns 0xB9FF7BBF
T22D4 000:032.794 JLINK_TIF_GetAvailable(...)
T22D4 000:033.195 - 0.413ms
T22D4 000:033.215 JLINK_SetErrorOutHandler(...)
T22D4 000:033.222 - 0.012ms
T22D4 000:033.241 JLINK_ExecCommand("ProjectFile = "D:\墨现-工作资料\3.项目\3x4鞋垫_16x16板\3x4_Insole_16x16_board\3x4_Ble\main_testing_tool_mdk_arm_project\Project\Keil_project\JLinkSettings.ini"", ...). 
T22D4 000:048.634   Device "CORTEX-M4" selected.
T22D4 000:048.974 - 15.742ms returns 0x00
T22D4 000:053.953 JLINK_ExecCommand("Device = GD32E103CB", ...). 
T22D4 000:058.130   Device "GD32E103CB" selected.
T22D4 000:058.469 - 4.488ms returns 0x00
T22D4 000:058.486 JLINK_ExecCommand("DisableConnectionTimeout", ...). 
T22D4 000:058.521 - 0.004ms returns 0x01
T22D4 000:058.529 JLINK_GetHardwareVersion()
T22D4 000:058.536 - 0.010ms returns 94000
T22D4 000:058.548 JLINK_GetDLLVersion()
T22D4 000:058.555 - 0.010ms returns 78200
T22D4 000:058.562 JLINK_GetOEMString(...)
T22D4 000:058.570 JLINK_GetFirmwareString(...)
T22D4 000:058.576 - 0.010ms
T22D4 000:072.508 JLINK_GetDLLVersion()
T22D4 000:072.540 - 0.034ms returns 78200
T22D4 000:072.548 JLINK_GetCompileDateTime()
T22D4 000:072.555 - 0.010ms
T22D4 000:075.612 JLINK_GetFirmwareString(...)
T22D4 000:075.635 - 0.027ms
T22D4 000:079.541 JLINK_GetHardwareVersion()
T22D4 000:079.569 - 0.031ms returns 94000
T22D4 000:082.585 JLINK_GetSN()
T22D4 000:082.607 - 0.025ms returns 69406604
T22D4 000:085.315 JLINK_GetOEMString(...)
T22D4 000:091.006 JLINK_TIF_Select(JLINKARM_TIF_SWD)
T22D4 000:092.685 - 1.695ms returns 0x00
T22D4 000:092.707 JLINK_HasError()
T22D4 000:092.720 JLINK_SetSpeed(20000)
T22D4 000:093.014 - 0.297ms
T22D4 000:093.023 JLINK_GetId()
T22D4 000:206.864   Failed to attach to CPU. Trying connect under reset.
T22D4 000:211.440   Found SW-DP with ID 0x2BA01477
T22D4 000:217.125   SWD speed too high. Reduced from 12000 kHz to 8100 kHz for stability
T22D4 000:223.061   DPIDR: 0x2BA01477
T22D4 000:226.394   CoreSight SoC-400 or earlier
T22D4 000:229.210   Scanning AP map to find all available APs
T22D4 000:233.626   AP[1]: Stopped AP scan as end of AP map has been reached
T22D4 000:236.524   AP[0]: AHB-AP (IDR: 0x24770011)
T22D4 000:240.132   Iterating through AP map to find AHB-AP to use
T22D4 000:244.446   AP[0]: Core found
T22D4 000:247.240   AP[0]: AHB-AP ROM base: 0xE00FF000
T22D4 000:252.689   CPUID register: 0x410FC241. Implementer code: 0x41 (ARM)
T22D4 000:255.876   Found Cortex-M4 r0p1, Little endian.
T22D4 000:256.744   -- Max. mem block: 0x00010E60
T22D4 000:257.054   CPU_ReadMem(4 bytes @ 0xE000EDF0)
T22D4 000:257.585   CPU_WriteMem(4 bytes @ 0xE000EDF0)
T22D4 000:258.128   CPU_ReadMem(4 bytes @ 0xE0002000)
T22D4 000:261.512   FPUnit: 6 code (BP) slots and 2 literal slots
T22D4 000:261.536   CPU_ReadMem(4 bytes @ 0xE000EDFC)
T22D4 000:262.088   CPU_WriteMem(4 bytes @ 0xE000EDFC)
T22D4 000:262.585   CPU_ReadMem(4 bytes @ 0xE0001000)
T22D4 000:263.096   CPU_WriteMem(4 bytes @ 0xE0001000)
T22D4 000:263.742   CPU_ReadMem(4 bytes @ 0xE000ED88)
T22D4 000:264.290   CPU_WriteMem(4 bytes @ 0xE000ED88)
T22D4 000:264.913   CPU_ReadMem(4 bytes @ 0xE000ED88)
T22D4 000:265.425   CPU_WriteMem(4 bytes @ 0xE000ED88)
T22D4 000:271.643   CoreSight components:
T22D4 000:274.637   ROMTbl[0] @ E00FF000
T22D4 000:274.663   CPU_ReadMem(64 bytes @ 0xE00FF000)
T22D4 000:275.542   CPU_ReadMem(32 bytes @ 0xE000EFE0)
T22D4 000:280.729   [0][0]: E000E000 CID B105E00D PID 000BB00C SCS-M7
T22D4 000:280.769   CPU_ReadMem(32 bytes @ 0xE0001FE0)
T22D4 000:285.140   [0][1]: E0001000 CID B105E00D PID 003BB002 DWT
T22D4 000:285.168   CPU_ReadMem(32 bytes @ 0xE0002FE0)
T22D4 000:288.729   [0][2]: E0002000 CID B105E00D PID 002BB003 FPB
T22D4 000:288.759   CPU_ReadMem(32 bytes @ 0xE0000FE0)
T22D4 000:292.936   [0][3]: E0000000 CID B105E00D PID 003BB001 ITM
T22D4 000:292.967   CPU_ReadMem(32 bytes @ 0xE0040FE0)
T22D4 000:296.654   [0][4]: E0040000 CID B105900D PID 000BB9A1 TPIU
T22D4 000:296.679   CPU_ReadMem(32 bytes @ 0xE0041FE0)
T22D4 000:300.753   [0][5]: E0041000 CID 00000000 PID 00000000 ???
T22D4 000:301.228 - 208.219ms returns 0x2BA01477
T22D4 000:301.252 JLINK_GetDLLVersion()
T22D4 000:301.259 - 0.010ms returns 78200
T22D4 000:301.268 JLINK_CORE_GetFound()
T22D4 000:301.275 - 0.010ms returns 0xE0000FF
T22D4 000:301.283 JLINK_GetDebugInfo(0x100 = JLINKARM_ROM_TABLE_ADDR_INDEX)
T22D4 000:301.296   Value=0xE00FF000
T22D4 000:301.306 - 0.026ms returns 0
T22D4 000:304.680 JLINK_GetDebugInfo(0x100 = JLINKARM_ROM_TABLE_ADDR_INDEX)
T22D4 000:304.708   Value=0xE00FF000
T22D4 000:304.719 - 0.042ms returns 0
T22D4 000:304.727 JLINK_GetDebugInfo(0x101 = JLINKARM_DEBUG_INFO_ETM_ADDR_INDEX)
T22D4 000:304.734   Value=0x00000000
T22D4 000:304.743 - 0.020ms returns 0
T22D4 000:304.755 JLINK_ReadMemEx(0xE0041FF0, 0x10 Bytes, Flags = 0x02000004)
T22D4 000:304.778   CPU_ReadMem(16 bytes @ 0xE0041FF0)
T22D4 000:305.380   Data:  00 00 00 00 00 00 00 00 00 00 00 00 00 00 00 00
T22D4 000:305.394 - 0.641ms returns 16 (0x10)
T22D4 000:305.403 JLINK_GetDebugInfo(0x102 = JLINKARM_DEBUG_INFO_MTB_ADDR_INDEX)
T22D4 000:305.410   Value=0x00000000
T22D4 000:305.419 - 0.020ms returns 0
T22D4 000:305.427 JLINK_GetDebugInfo(0x103 = JLINKARM_DEBUG_INFO_TPIU_ADDR_INDEX)
T22D4 000:305.433   Value=0xE0040000
T22D4 000:305.443 - 0.020ms returns 0
T22D4 000:305.450 JLINK_GetDebugInfo(0x104 = JLINKARM_DEBUG_INFO_ITM_ADDR_INDEX)
T22D4 000:305.457   Value=0xE0000000
T22D4 000:305.467 - 0.019ms returns 0
T22D4 000:305.474 JLINK_GetDebugInfo(0x105 = JLINKARM_DEBUG_INFO_DWT_ADDR_INDEX)
T22D4 000:305.481   Value=0xE0001000
T22D4 000:305.491 - 0.019ms returns 0
T22D4 000:305.498 JLINK_GetDebugInfo(0x106 = JLINKARM_DEBUG_INFO_FPB_ADDR_INDEX)
T22D4 000:305.505   Value=0xE0002000
T22D4 000:305.514 - 0.019ms returns 0
T22D4 000:305.521 JLINK_GetDebugInfo(0x107 = JLINKARM_DEBUG_INFO_NVIC_ADDR_INDEX)
T22D4 000:305.528   Value=0xE000E000
T22D4 000:305.538 - 0.019ms returns 0
T22D4 000:305.545 JLINK_GetDebugInfo(0x10C = JLINKARM_DEBUG_INFO_DBG_ADDR_INDEX)
T22D4 000:305.554   Value=0xE000EDF0
T22D4 000:305.564 - 0.022ms returns 0
T22D4 000:305.571 JLINK_GetDebugInfo(0x01 = Unknown)
T22D4 000:305.579   Value=0x00000001
T22D4 000:305.589 - 0.020ms returns 0
T22D4 000:305.596 JLINK_ReadMemU32(0xE000ED00, 0x1 Items)
T22D4 000:305.606   CPU_ReadMem(4 bytes @ 0xE000ED00)
T22D4 000:306.129   Data:  41 C2 0F 41
T22D4 000:306.141   Debug reg: CPUID
T22D4 000:306.151 - 0.558ms returns 1 (0x1)
T22D4 000:306.159 JLINK_GetDebugInfo(0x10F = JLINKARM_DEBUG_INFO_HAS_CORTEX_M_SECURITY_EXT_INDEX)
T22D4 000:306.167   Value=0x00000000
T22D4 000:306.176 - 0.020ms returns 0
T22D4 000:306.184 JLINK_HasError()
T22D4 000:306.192 JLINK_SetResetType(JLINKARM_CM3_RESET_TYPE_NORMAL)
T22D4 000:306.199 - 0.010ms returns JLINKARM_CM3_RESET_TYPE_NORMAL
T22D4 000:306.207 JLINK_Reset()
T22D4 000:306.218   CPU is running
T22D4 000:306.229   CPU_WriteMem(4 bytes @ 0xE000EDF0)
T22D4 000:306.731   CPU is running
T22D4 000:306.742   CPU_WriteMem(4 bytes @ 0xE000EDFC)
T22D4 000:310.450   Reset: Halt core after reset via DEMCR.VC_CORERESET.
T22D4 000:314.997   Reset: Reset device via AIRCR.SYSRESETREQ.
T22D4 000:315.021   CPU is running
T22D4 000:315.033   CPU_WriteMem(4 bytes @ 0xE000ED0C)
T22D4 000:368.042   CPU_ReadMem(4 bytes @ 0xE000EDF0)
T22D4 000:368.869   CPU_ReadMem(4 bytes @ 0xE000EDF0)
T22D4 000:369.577   CPU is running
T22D4 000:369.641   CPU_WriteMem(4 bytes @ 0xE000EDF0)
T22D4 000:370.280   CPU is running
T22D4 000:370.331   CPU_WriteMem(4 bytes @ 0xE000EDFC)
T22D4 000:376.795   CPU_ReadMem(4 bytes @ 0xE000EDF0)
T22D4 000:380.455   CPU_WriteMem(4 bytes @ 0xE0002000)
T22D4 000:381.021   CPU_ReadMem(4 bytes @ 0xE000EDFC)
T22D4 000:381.567   CPU_ReadMem(4 bytes @ 0xE0001000)
T22D4 000:382.142 - 75.943ms
T22D4 000:382.164 JLINK_Halt()
T22D4 000:382.177 - 0.018ms returns 0x00
T22D4 000:382.192 JLINK_ReadMemU32(0xE000EDF0, 0x1 Items)
T22D4 000:382.212   CPU_ReadMem(4 bytes @ 0xE000EDF0)
T22D4 000:382.794   Data:  03 00 03 00
T22D4 000:382.816   Debug reg: DHCSR
T22D4 000:382.834 - 0.648ms returns 1 (0x1)
T22D4 000:382.853 JLINK_WriteU32_64(0xE000EDF0, 0xA05F0003)
T22D4 000:382.868   Debug reg: DHCSR
T22D4 000:383.150   CPU_WriteMem(4 bytes @ 0xE000EDF0)
T22D4 000:383.690 - 0.844ms returns 0 (0x00000000)
T22D4 000:383.707 JLINK_WriteU32_64(0xE000EDFC, 0x01000000)
T22D4 000:383.719   Debug reg: DEMCR
T22D4 000:383.739   CPU_WriteMem(4 bytes @ 0xE000EDFC)
T22D4 000:384.315 - 0.614ms returns 0 (0x00000000)
T22D4 000:399.039 JLINK_GetHWStatus(...)
T22D4 000:399.488 - 0.476ms returns 0
T22D4 000:408.265 JLINK_GetNumBPUnits(Type = 0xFFFFFF00)
T22D4 000:408.285 - 0.023ms returns 0x06
T22D4 000:408.293 JLINK_GetNumBPUnits(Type = 0xF0)
T22D4 000:408.300 - 0.010ms returns 0x2000
T22D4 000:408.307 JLINK_GetNumWPUnits()
T22D4 000:408.314 - 0.009ms returns 4
T22D4 000:417.569 JLINK_GetSpeed()
T22D4 000:417.599 - 0.033ms returns 6000
T22D4 000:423.589 JLINK_ReadMemU32(0xE000E004, 0x1 Items)
T22D4 000:423.662   CPU_ReadMem(4 bytes @ 0xE000E004)
T22D4 000:424.308   Data:  02 00 00 00
T22D4 000:424.333 - 0.747ms returns 1 (0x1)
T22D4 000:424.343 JLINK_ReadMemU32(0xE000E004, 0x1 Items)
T22D4 000:424.356   CPU_ReadMem(4 bytes @ 0xE000E004)
T22D4 000:424.881   Data:  02 00 00 00
T22D4 000:424.892 - 0.552ms returns 1 (0x1)
T22D4 000:424.900 JLINK_WriteMemEx(0xE0001000, 0x0000001C Bytes, Flags = 0x02000004)
T22D4 000:424.908   Data:  01 00 00 00 00 00 00 00 00 00 00 00 00 00 00 00 ...
T22D4 000:424.923   CPU_WriteMem(28 bytes @ 0xE0001000)
T22D4 000:425.585 - 0.689ms returns 0x1C
T22D4 000:425.597 JLINK_Halt()
T22D4 000:425.607 - 0.013ms returns 0x00
T22D4 000:425.614 JLINK_IsHalted()
T22D4 000:425.621 - 0.010ms returns TRUE
T22D4 000:427.831 JLINK_WriteMem(0x20000000, 0x1B0 Bytes, ...)
T22D4 000:427.842   Data:  00 BE 0A E0 0D 78 2D 06 68 40 08 24 40 00 00 D3 ...
T22D4 000:428.020   CPU_WriteMem(432 bytes @ 0x20000000)
T22D4 000:430.687 - 2.863ms returns 0x1B0
T22D4 000:430.717 JLINK_HasError()
T22D4 000:430.726 JLINK_WriteReg(R0, 0x08000000)
T22D4 000:430.739 - 0.016ms returns 0
T22D4 000:430.746 JLINK_WriteReg(R1, 0x00B71B00)
T22D4 000:430.753 - 0.010ms returns 0
T22D4 000:430.760 JLINK_WriteReg(R2, 0x00000001)
T22D4 000:430.767 - 0.010ms returns 0
T22D4 000:430.775 JLINK_WriteReg(R3, 0x00000000)
T22D4 000:430.781 - 0.010ms returns 0
T22D4 000:430.789 JLINK_WriteReg(R4, 0x00000000)
T22D4 000:430.795 - 0.010ms returns 0
T22D4 000:430.803 JLINK_WriteReg(R5, 0x00000000)
T22D4 000:430.810 - 0.010ms returns 0
T22D4 000:430.817 JLINK_WriteReg(R6, 0x00000000)
T22D4 000:430.823 - 0.010ms returns 0
T22D4 000:430.831 JLINK_WriteReg(R7, 0x00000000)
T22D4 000:430.837 - 0.010ms returns 0
T22D4 000:430.845 JLINK_WriteReg(R8, 0x00000000)
T22D4 000:430.854 - 0.012ms returns 0
T22D4 000:430.861 JLINK_WriteReg(R9, 0x200001A8)
T22D4 000:430.868 - 0.010ms returns 0
T22D4 000:430.875 JLINK_WriteReg(R10, 0x00000000)
T22D4 000:430.882 - 0.010ms returns 0
T22D4 000:430.889 JLINK_WriteReg(R11, 0x00000000)
T22D4 000:430.896 - 0.010ms returns 0
T22D4 000:430.903 JLINK_WriteReg(R12, 0x00000000)
T22D4 000:430.910 - 0.013ms returns 0
T22D4 000:430.922 JLINK_WriteReg(R13 (SP), 0x20001000)
T22D4 000:430.929 - 0.010ms returns 0
T22D4 000:430.936 JLINK_WriteReg(R14, 0x20000001)
T22D4 000:430.943 - 0.010ms returns 0
T22D4 000:430.950 JLINK_WriteReg(R15 (PC), 0x20000038)
T22D4 000:430.958 - 0.011ms returns 0
T22D4 000:430.965 JLINK_WriteReg(XPSR, 0x01000000)
T22D4 000:430.972 - 0.010ms returns 0
T22D4 000:430.980 JLINK_WriteReg(MSP, 0x20001000)
T22D4 000:430.986 - 0.010ms returns 0
T22D4 000:430.994 JLINK_WriteReg(PSP, 0x20001000)
T22D4 000:431.001 - 0.010ms returns 0
T22D4 000:431.008 JLINK_WriteReg(CFBP, 0x00000000)
T22D4 000:431.015 - 0.010ms returns 0
T22D4 000:431.022 JLINK_SetBPEx(Addr = 0x20000000, Type = 0xFFFFFFF2)
T22D4 000:431.033   CPU_ReadMem(2 bytes @ 0x20000000)
T22D4 000:431.552 - 0.535ms returns 0x00000001
T22D4 000:431.562 JLINK_Go()
T22D4 000:431.571   CPU_WriteMem(2 bytes @ 0x20000000)
T22D4 000:432.134   CPU_ReadMem(4 bytes @ 0xE0001000)
T22D4 000:432.695   CPU_WriteMem(4 bytes @ 0xE0002008)
T22D4 000:432.706   CPU_WriteMem(4 bytes @ 0xE000200C)
T22D4 000:432.715   CPU_WriteMem(4 bytes @ 0xE0002010)
T22D4 000:432.725   CPU_WriteMem(4 bytes @ 0xE0002014)
T22D4 000:432.735   CPU_WriteMem(4 bytes @ 0xE0002018)
T22D4 000:432.745   CPU_WriteMem(4 bytes @ 0xE000201C)
T22D4 000:434.203   CPU_WriteMem(4 bytes @ 0xE0001004)
T22D4 000:437.701 - 6.165ms
T22D4 000:437.744 JLINK_IsHalted()
T22D4 000:440.606   CPU_ReadMem(2 bytes @ 0x20000000)
T22D4 000:441.097 - 3.357ms returns TRUE
T22D4 000:441.108 JLINK_ReadReg(R15 (PC))
T22D4 000:441.117 - 0.012ms returns 0x20000000
T22D4 000:441.126 JLINK_ClrBPEx(BPHandle = 0x00000001)
T22D4 000:441.133 - 0.010ms returns 0x00
T22D4 000:441.141 JLINK_ReadReg(R0)
T22D4 000:441.148 - 0.010ms returns 0x00000000
T22D4 000:441.463 JLINK_HasError()
T22D4 000:441.478 JLINK_WriteReg(R0, 0x08000000)
T22D4 000:441.486 - 0.011ms returns 0
T22D4 000:441.494 JLINK_WriteReg(R1, 0x00B71B00)
T22D4 000:441.501 - 0.010ms returns 0
T22D4 000:441.508 JLINK_WriteReg(R2, 0x00000001)
T22D4 000:441.515 - 0.010ms returns 0
T22D4 000:441.522 JLINK_WriteReg(R3, 0x00000000)
T22D4 000:441.529 - 0.010ms returns 0
T22D4 000:441.536 JLINK_WriteReg(R4, 0x00000000)
T22D4 000:441.543 - 0.015ms returns 0
T22D4 000:441.556 JLINK_WriteReg(R5, 0x00000000)
T22D4 000:441.563 - 0.010ms returns 0
T22D4 000:441.570 JLINK_WriteReg(R6, 0x00000000)
T22D4 000:441.577 - 0.010ms returns 0
T22D4 000:441.584 JLINK_WriteReg(R7, 0x00000000)
T22D4 000:441.591 - 0.010ms returns 0
T22D4 000:441.598 JLINK_WriteReg(R8, 0x00000000)
T22D4 000:441.605 - 0.010ms returns 0
T22D4 000:441.613 JLINK_WriteReg(R9, 0x200001A8)
T22D4 000:441.619 - 0.010ms returns 0
T22D4 000:441.627 JLINK_WriteReg(R10, 0x00000000)
T22D4 000:441.633 - 0.010ms returns 0
T22D4 000:441.641 JLINK_WriteReg(R11, 0x00000000)
T22D4 000:441.648 - 0.010ms returns 0
T22D4 000:441.655 JLINK_WriteReg(R12, 0x00000000)
T22D4 000:441.662 - 0.010ms returns 0
T22D4 000:441.669 JLINK_WriteReg(R13 (SP), 0x20001000)
T22D4 000:441.677 - 0.011ms returns 0
T22D4 000:441.684 JLINK_WriteReg(R14, 0x20000001)
T22D4 000:441.691 - 0.010ms returns 0
T22D4 000:441.699 JLINK_WriteReg(R15 (PC), 0x20000086)
T22D4 000:441.706 - 0.011ms returns 0
T22D4 000:441.715 JLINK_WriteReg(XPSR, 0x01000000)
T22D4 000:441.722 - 0.010ms returns 0
T22D4 000:441.729 JLINK_WriteReg(MSP, 0x20001000)
T22D4 000:441.736 - 0.010ms returns 0
T22D4 000:441.743 JLINK_WriteReg(PSP, 0x20001000)
T22D4 000:441.752 - 0.012ms returns 0
T22D4 000:441.760 JLINK_WriteReg(CFBP, 0x00000000)
T22D4 000:441.767 - 0.010ms returns 0
T22D4 000:441.774 JLINK_SetBPEx(Addr = 0x20000000, Type = 0xFFFFFFF2)
T22D4 000:441.782 - 0.011ms returns 0x00000002
T22D4 000:441.790 JLINK_Go()
T22D4 000:441.803   CPU_ReadMem(4 bytes @ 0xE0001000)
T22D4 000:445.333 - 3.552ms
T22D4 000:445.347 JLINK_IsHalted()
T22D4 000:445.891 - 0.548ms returns FALSE
T22D4 000:445.901 JLINK_HasError()
T22D4 000:461.488 JLINK_IsHalted()
T22D4 000:464.476   CPU_ReadMem(2 bytes @ 0x20000000)
T22D4 000:465.035 - 3.593ms returns TRUE
T22D4 000:465.090 JLINK_ReadReg(R15 (PC))
T22D4 000:465.100 - 0.013ms returns 0x20000000
T22D4 000:465.108 JLINK_ClrBPEx(BPHandle = 0x00000002)
T22D4 000:465.115 - 0.010ms returns 0x00
T22D4 000:465.123 JLINK_ReadReg(R0)
T22D4 000:465.130 - 0.010ms returns 0x00000000
T22D4 000:516.629 JLINK_HasError()
T22D4 000:516.664 JLINK_WriteReg(R0, 0x00000001)
T22D4 000:516.686 - 0.026ms returns 0
T22D4 000:516.695 JLINK_WriteReg(R1, 0x00B71B00)
T22D4 000:516.702 - 0.010ms returns 0
T22D4 000:516.709 JLINK_WriteReg(R2, 0x00000001)
T22D4 000:516.716 - 0.010ms returns 0
T22D4 000:516.723 JLINK_WriteReg(R3, 0x00000000)
T22D4 000:516.733 - 0.013ms returns 0
T22D4 000:516.741 JLINK_WriteReg(R4, 0x00000000)
T22D4 000:516.747 - 0.010ms returns 0
T22D4 000:516.758 JLINK_WriteReg(R5, 0x00000000)
T22D4 000:516.765 - 0.010ms returns 0
T22D4 000:516.772 JLINK_WriteReg(R6, 0x00000000)
T22D4 000:516.794 - 0.025ms returns 0
T22D4 000:516.802 JLINK_WriteReg(R7, 0x00000000)
T22D4 000:516.813 - 0.014ms returns 0
T22D4 000:516.821 JLINK_WriteReg(R8, 0x00000000)
T22D4 000:516.827 - 0.010ms returns 0
T22D4 000:516.835 JLINK_WriteReg(R9, 0x200001A8)
T22D4 000:516.842 - 0.010ms returns 0
T22D4 000:516.849 JLINK_WriteReg(R10, 0x00000000)
T22D4 000:516.856 - 0.010ms returns 0
T22D4 000:516.863 JLINK_WriteReg(R11, 0x00000000)
T22D4 000:516.869 - 0.010ms returns 0
T22D4 000:516.876 JLINK_WriteReg(R12, 0x00000000)
T22D4 000:516.883 - 0.009ms returns 0
T22D4 000:516.890 JLINK_WriteReg(R13 (SP), 0x20001000)
T22D4 000:516.898 - 0.010ms returns 0
T22D4 000:516.905 JLINK_WriteReg(R14, 0x20000001)
T22D4 000:516.912 - 0.010ms returns 0
T22D4 000:516.919 JLINK_WriteReg(R15 (PC), 0x20000074)
T22D4 000:516.926 - 0.010ms returns 0
T22D4 000:516.933 JLINK_WriteReg(XPSR, 0x01000000)
T22D4 000:516.940 - 0.010ms returns 0
T22D4 000:516.947 JLINK_WriteReg(MSP, 0x20001000)
T22D4 000:516.953 - 0.009ms returns 0
T22D4 000:516.961 JLINK_WriteReg(PSP, 0x20001000)
T22D4 000:516.967 - 0.010ms returns 0
T22D4 000:516.974 JLINK_WriteReg(CFBP, 0x00000000)
T22D4 000:516.981 - 0.009ms returns 0
T22D4 000:516.988 JLINK_SetBPEx(Addr = 0x20000000, Type = 0xFFFFFFF2)
T22D4 000:516.997 - 0.012ms returns 0x00000003
T22D4 000:517.005 JLINK_Go()
T22D4 000:517.019   CPU_ReadMem(4 bytes @ 0xE0001000)
T22D4 000:520.624 - 3.629ms
T22D4 000:520.641 JLINK_IsHalted()
T22D4 000:523.570   CPU_ReadMem(2 bytes @ 0x20000000)
T22D4 000:524.109 - 3.473ms returns TRUE
T22D4 000:524.121 JLINK_ReadReg(R15 (PC))
T22D4 000:524.131 - 0.013ms returns 0x20000000
T22D4 000:524.141 JLINK_ClrBPEx(BPHandle = 0x00000003)
T22D4 000:524.150 - 0.013ms returns 0x00
T22D4 000:524.160 JLINK_ReadReg(R0)
T22D4 000:524.169 - 0.012ms returns 0x00000000
T22D4 000:529.193 JLINK_WriteMem(0x20000000, 0x1B0 Bytes, ...)
T22D4 000:529.206   Data:  00 BE 0A E0 0D 78 2D 06 68 40 08 24 40 00 00 D3 ...
T22D4 000:529.224   CPU_WriteMem(432 bytes @ 0x20000000)
T22D4 000:531.871 - 2.695ms returns 0x1B0
T22D4 000:531.921 JLINK_HasError()
T22D4 000:531.930 JLINK_WriteReg(R0, 0x08000000)
T22D4 000:531.940 - 0.013ms returns 0
T22D4 000:531.947 JLINK_WriteReg(R1, 0x00B71B00)
T22D4 000:531.954 - 0.011ms returns 0
T22D4 000:531.962 JLINK_WriteReg(R2, 0x00000002)
T22D4 000:531.969 - 0.010ms returns 0
T22D4 000:531.976 JLINK_WriteReg(R3, 0x00000000)
T22D4 000:531.983 - 0.010ms returns 0
T22D4 000:531.990 JLINK_WriteReg(R4, 0x00000000)
T22D4 000:531.997 - 0.010ms returns 0
T22D4 000:532.004 JLINK_WriteReg(R5, 0x00000000)
T22D4 000:532.011 - 0.010ms returns 0
T22D4 000:532.018 JLINK_WriteReg(R6, 0x00000000)
T22D4 000:532.025 - 0.010ms returns 0
T22D4 000:532.032 JLINK_WriteReg(R7, 0x00000000)
T22D4 000:532.039 - 0.010ms returns 0
T22D4 000:532.046 JLINK_WriteReg(R8, 0x00000000)
T22D4 000:532.053 - 0.010ms returns 0
T22D4 000:532.060 JLINK_WriteReg(R9, 0x200001A8)
T22D4 000:532.067 - 0.010ms returns 0
T22D4 000:532.074 JLINK_WriteReg(R10, 0x00000000)
T22D4 000:532.081 - 0.010ms returns 0
T22D4 000:532.088 JLINK_WriteReg(R11, 0x00000000)
T22D4 000:532.099 - 0.016ms returns 0
T22D4 000:532.109 JLINK_WriteReg(R12, 0x00000000)
T22D4 000:532.115 - 0.010ms returns 0
T22D4 000:532.123 JLINK_WriteReg(R13 (SP), 0x20001000)
T22D4 000:532.130 - 0.010ms returns 0
T22D4 000:532.137 JLINK_WriteReg(R14, 0x20000001)
T22D4 000:532.144 - 0.010ms returns 0
T22D4 000:532.151 JLINK_WriteReg(R15 (PC), 0x20000038)
T22D4 000:532.158 - 0.010ms returns 0
T22D4 000:532.165 JLINK_WriteReg(XPSR, 0x01000000)
T22D4 000:532.172 - 0.010ms returns 0
T22D4 000:532.180 JLINK_WriteReg(MSP, 0x20001000)
T22D4 000:532.186 - 0.010ms returns 0
T22D4 000:532.194 JLINK_WriteReg(PSP, 0x20001000)
T22D4 000:532.201 - 0.010ms returns 0
T22D4 000:532.208 JLINK_WriteReg(CFBP, 0x00000000)
T22D4 000:532.215 - 0.010ms returns 0
T22D4 000:532.222 JLINK_SetBPEx(Addr = 0x20000000, Type = 0xFFFFFFF2)
T22D4 000:532.233   CPU_ReadMem(2 bytes @ 0x20000000)
T22D4 000:532.734 - 0.517ms returns 0x00000004
T22D4 000:532.744 JLINK_Go()
T22D4 000:532.752   CPU_WriteMem(2 bytes @ 0x20000000)
T22D4 000:533.305   CPU_ReadMem(4 bytes @ 0xE0001000)
T22D4 000:536.733 - 3.994ms
T22D4 000:536.748 JLINK_IsHalted()
T22D4 000:539.717   CPU_ReadMem(2 bytes @ 0x20000000)
T22D4 000:540.278 - 3.534ms returns TRUE
T22D4 000:540.287 JLINK_ReadReg(R15 (PC))
T22D4 000:540.295 - 0.011ms returns 0x20000000
T22D4 000:540.303 JLINK_ClrBPEx(BPHandle = 0x00000004)
T22D4 000:540.310 - 0.010ms returns 0x00
T22D4 000:540.317 JLINK_ReadReg(R0)
T22D4 000:540.324 - 0.010ms returns 0x00000000
T22D4 000:540.510 JLINK_WriteMem(0x200001B0, 0x250 Bytes, ...)
T22D4 000:540.520   Data:  10 1B 00 20 69 01 00 08 B9 06 00 08 19 06 00 08 ...
T22D4 000:540.535   CPU_WriteMem(592 bytes @ 0x200001B0)
T22D4 000:544.007 - 3.511ms returns 0x250
T22D4 000:544.027 JLINK_WriteMem(0x20000400, 0x1B0 Bytes, ...)
T22D4 000:544.034   Data:  28 B1 4F F4 80 41 65 48 01 F0 72 F9 04 E0 4F F4 ...
T22D4 000:544.052   CPU_WriteMem(432 bytes @ 0x20000400)
T22D4 000:546.770 - 2.755ms returns 0x1B0
T22D4 000:546.789 JLINK_HasError()
T22D4 000:546.798 JLINK_WriteReg(R0, 0x08000000)
T22D4 000:546.807 - 0.013ms returns 0
T22D4 000:546.815 JLINK_WriteReg(R1, 0x00000400)
T22D4 000:546.822 - 0.010ms returns 0
T22D4 000:546.829 JLINK_WriteReg(R2, 0x200001B0)
T22D4 000:546.836 - 0.010ms returns 0
T22D4 000:546.844 JLINK_WriteReg(R3, 0x00000000)
T22D4 000:546.850 - 0.010ms returns 0
T22D4 000:546.858 JLINK_WriteReg(R4, 0x00000000)
T22D4 000:546.864 - 0.010ms returns 0
T22D4 000:546.872 JLINK_WriteReg(R5, 0x00000000)
T22D4 000:546.879 - 0.010ms returns 0
T22D4 000:546.886 JLINK_WriteReg(R6, 0x00000000)
T22D4 000:546.893 - 0.010ms returns 0
T22D4 000:546.900 JLINK_WriteReg(R7, 0x00000000)
T22D4 000:546.906 - 0.010ms returns 0
T22D4 000:546.914 JLINK_WriteReg(R8, 0x00000000)
T22D4 000:546.920 - 0.010ms returns 0
T22D4 000:546.928 JLINK_WriteReg(R9, 0x200001A8)
T22D4 000:546.934 - 0.010ms returns 0
T22D4 000:546.942 JLINK_WriteReg(R10, 0x00000000)
T22D4 000:546.948 - 0.010ms returns 0
T22D4 000:546.956 JLINK_WriteReg(R11, 0x00000000)
T22D4 000:546.962 - 0.010ms returns 0
T22D4 000:546.970 JLINK_WriteReg(R12, 0x00000000)
T22D4 000:546.976 - 0.010ms returns 0
T22D4 000:546.984 JLINK_WriteReg(R13 (SP), 0x20001000)
T22D4 000:546.991 - 0.010ms returns 0
T22D4 000:546.998 JLINK_WriteReg(R14, 0x20000001)
T22D4 000:547.005 - 0.010ms returns 0
T22D4 000:547.013 JLINK_WriteReg(R15 (PC), 0x20000102)
T22D4 000:547.019 - 0.010ms returns 0
T22D4 000:547.027 JLINK_WriteReg(XPSR, 0x01000000)
T22D4 000:547.034 - 0.010ms returns 0
T22D4 000:547.041 JLINK_WriteReg(MSP, 0x20001000)
T22D4 000:547.048 - 0.010ms returns 0
T22D4 000:547.055 JLINK_WriteReg(PSP, 0x20001000)
T22D4 000:547.062 - 0.010ms returns 0
T22D4 000:547.069 JLINK_WriteReg(CFBP, 0x00000000)
T22D4 000:547.075 - 0.010ms returns 0
T22D4 000:547.083 JLINK_SetBPEx(Addr = 0x20000000, Type = 0xFFFFFFF2)
T22D4 000:547.091 - 0.011ms returns 0x00000005
T22D4 000:547.098 JLINK_Go()
T22D4 000:547.109   CPU_ReadMem(4 bytes @ 0xE0001000)
T22D4 000:550.699 - 3.610ms
T22D4 000:550.715 JLINK_IsHalted()
T22D4 000:551.232 - 0.520ms returns FALSE
T22D4 000:551.241 JLINK_HasError()
T22D4 000:556.743 JLINK_IsHalted()
T22D4 000:557.335 - 0.605ms returns FALSE
T22D4 000:557.354 JLINK_HasError()
T22D4 000:559.671 JLINK_IsHalted()
T22D4 000:560.186 - 0.519ms returns FALSE
T22D4 000:560.196 JLINK_HasError()
T22D4 000:561.662 JLINK_IsHalted()
T22D4 000:562.208 - 0.549ms returns FALSE
T22D4 000:562.217 JLINK_HasError()
T22D4 000:563.661 JLINK_IsHalted()
T22D4 000:566.759   CPU_ReadMem(2 bytes @ 0x20000000)
T22D4 000:567.301 - 3.644ms returns TRUE
T22D4 000:567.311 JLINK_ReadReg(R15 (PC))
T22D4 000:567.320 - 0.012ms returns 0x20000000
T22D4 000:567.327 JLINK_ClrBPEx(BPHandle = 0x00000005)
T22D4 000:567.334 - 0.010ms returns 0x00
T22D4 000:567.342 JLINK_ReadReg(R0)
T22D4 000:567.349 - 0.010ms returns 0x00000000
T22D4 000:567.628 JLINK_WriteMem(0x200001B0, 0x250 Bytes, ...)
T22D4 000:567.640   Data:  0A 48 01 F0 9D F8 03 E0 20 21 08 48 01 F0 96 F8 ...
T22D4 000:567.655   CPU_WriteMem(592 bytes @ 0x200001B0)
T22D4 000:571.144 - 3.524ms returns 0x250
T22D4 000:571.158 JLINK_WriteMem(0x20000400, 0x1B0 Bytes, ...)
T22D4 000:571.165   Data:  10 21 0A 48 00 F0 92 FF 49 F6 F0 13 03 22 10 21 ...
T22D4 000:571.179   CPU_WriteMem(432 bytes @ 0x20000400)
T22D4 000:573.871 - 2.717ms returns 0x1B0
T22D4 000:573.880 JLINK_HasError()
T22D4 000:573.888 JLINK_WriteReg(R0, 0x08000400)
T22D4 000:573.897 - 0.011ms returns 0
T22D4 000:573.904 JLINK_WriteReg(R1, 0x00000400)
T22D4 000:573.911 - 0.010ms returns 0
T22D4 000:573.918 JLINK_WriteReg(R2, 0x200001B0)
T22D4 000:573.925 - 0.010ms returns 0
T22D4 000:573.932 JLINK_WriteReg(R3, 0x00000000)
T22D4 000:573.939 - 0.010ms returns 0
T22D4 000:573.946 JLINK_WriteReg(R4, 0x00000000)
T22D4 000:573.953 - 0.010ms returns 0
T22D4 000:573.960 JLINK_WriteReg(R5, 0x00000000)
T22D4 000:573.967 - 0.010ms returns 0
T22D4 000:573.974 JLINK_WriteReg(R6, 0x00000000)
T22D4 000:573.981 - 0.010ms returns 0
T22D4 000:573.988 JLINK_WriteReg(R7, 0x00000000)
T22D4 000:573.995 - 0.010ms returns 0
T22D4 000:574.002 JLINK_WriteReg(R8, 0x00000000)
T22D4 000:574.009 - 0.010ms returns 0
T22D4 000:574.016 JLINK_WriteReg(R9, 0x200001A8)
T22D4 000:574.023 - 0.010ms returns 0
T22D4 000:574.030 JLINK_WriteReg(R10, 0x00000000)
T22D4 000:574.037 - 0.010ms returns 0
T22D4 000:574.045 JLINK_WriteReg(R11, 0x00000000)
T22D4 000:574.051 - 0.010ms returns 0
T22D4 000:574.058 JLINK_WriteReg(R12, 0x00000000)
T22D4 000:574.065 - 0.010ms returns 0
T22D4 000:574.072 JLINK_WriteReg(R13 (SP), 0x20001000)
T22D4 000:574.080 - 0.010ms returns 0
T22D4 000:574.087 JLINK_WriteReg(R14, 0x20000001)
T22D4 000:574.094 - 0.010ms returns 0
T22D4 000:574.101 JLINK_WriteReg(R15 (PC), 0x20000102)
T22D4 000:574.108 - 0.010ms returns 0
T22D4 000:574.115 JLINK_WriteReg(XPSR, 0x01000000)
T22D4 000:574.122 - 0.010ms returns 0
T22D4 000:574.129 JLINK_WriteReg(MSP, 0x20001000)
T22D4 000:574.136 - 0.010ms returns 0
T22D4 000:574.143 JLINK_WriteReg(PSP, 0x20001000)
T22D4 000:574.150 - 0.010ms returns 0
T22D4 000:574.157 JLINK_WriteReg(CFBP, 0x00000000)
T22D4 000:574.164 - 0.010ms returns 0
T22D4 000:574.172 JLINK_SetBPEx(Addr = 0x20000000, Type = 0xFFFFFFF2)
T22D4 000:574.179 - 0.011ms returns 0x00000006
T22D4 000:574.187 JLINK_Go()
T22D4 000:574.197   CPU_ReadMem(4 bytes @ 0xE0001000)
T22D4 000:577.697 - 3.515ms
T22D4 000:577.708 JLINK_IsHalted()
T22D4 000:578.234 - 0.529ms returns FALSE
T22D4 000:578.243 JLINK_HasError()
T22D4 000:579.603 JLINK_IsHalted()
T22D4 000:580.140 - 0.541ms returns FALSE
T22D4 000:580.150 JLINK_HasError()
T22D4 000:581.597 JLINK_IsHalted()
T22D4 000:582.131 - 0.537ms returns FALSE
T22D4 000:582.140 JLINK_HasError()
T22D4 000:583.595 JLINK_IsHalted()
T22D4 000:584.131 - 0.542ms returns FALSE
T22D4 000:584.142 JLINK_HasError()
T22D4 000:585.588 JLINK_IsHalted()
T22D4 000:586.129 - 0.546ms returns FALSE
T22D4 000:586.139 JLINK_HasError()
T22D4 000:587.576 JLINK_IsHalted()
T22D4 000:588.083 - 0.511ms returns FALSE
T22D4 000:588.092 JLINK_HasError()
T22D4 000:589.570 JLINK_IsHalted()
T22D4 000:590.107 - 0.540ms returns FALSE
T22D4 000:590.116 JLINK_HasError()
T22D4 000:591.570 JLINK_IsHalted()
T22D4 000:594.580   CPU_ReadMem(2 bytes @ 0x20000000)
T22D4 000:595.129 - 3.565ms returns TRUE
T22D4 000:595.141 JLINK_ReadReg(R15 (PC))
T22D4 000:595.150 - 0.012ms returns 0x20000000
T22D4 000:595.158 JLINK_ClrBPEx(BPHandle = 0x00000006)
T22D4 000:595.165 - 0.010ms returns 0x00
T22D4 000:595.173 JLINK_ReadReg(R0)
T22D4 000:595.180 - 0.010ms returns 0x00000000
T22D4 000:595.439 JLINK_WriteMem(0x200001B0, 0x250 Bytes, ...)
T22D4 000:595.449   Data:  09 49 08 60 4F F4 7F 00 88 60 08 46 00 68 20 F4 ...
T22D4 000:595.464   CPU_WriteMem(592 bytes @ 0x200001B0)
T22D4 000:598.906 - 3.475ms returns 0x250
T22D4 000:598.920 JLINK_WriteMem(0x20000400, 0x1B0 Bytes, ...)
T22D4 000:598.927   Data:  00 BF 00 BF 30 BD 00 00 10 B5 26 48 00 F0 58 F8 ...
T22D4 000:598.941   CPU_WriteMem(432 bytes @ 0x20000400)
T22D4 000:601.694 - 2.780ms returns 0x1B0
T22D4 000:601.706 JLINK_HasError()
T22D4 000:601.714 JLINK_WriteReg(R0, 0x08000800)
T22D4 000:601.723 - 0.011ms returns 0
T22D4 000:601.730 JLINK_WriteReg(R1, 0x00000400)
T22D4 000:601.738 - 0.011ms returns 0
T22D4 000:601.746 JLINK_WriteReg(R2, 0x200001B0)
T22D4 000:601.753 - 0.010ms returns 0
T22D4 000:601.761 JLINK_WriteReg(R3, 0x00000000)
T22D4 000:601.768 - 0.010ms returns 0
T22D4 000:601.776 JLINK_WriteReg(R4, 0x00000000)
T22D4 000:601.783 - 0.010ms returns 0
T22D4 000:601.791 JLINK_WriteReg(R5, 0x00000000)
T22D4 000:601.798 - 0.010ms returns 0
T22D4 000:601.806 JLINK_WriteReg(R6, 0x00000000)
T22D4 000:601.813 - 0.010ms returns 0
T22D4 000:601.821 JLINK_WriteReg(R7, 0x00000000)
T22D4 000:601.828 - 0.010ms returns 0
T22D4 000:601.836 JLINK_WriteReg(R8, 0x00000000)
T22D4 000:601.843 - 0.010ms returns 0
T22D4 000:601.850 JLINK_WriteReg(R9, 0x200001A8)
T22D4 000:601.858 - 0.010ms returns 0
T22D4 000:601.865 JLINK_WriteReg(R10, 0x00000000)
T22D4 000:601.873 - 0.011ms returns 0
T22D4 000:601.881 JLINK_WriteReg(R11, 0x00000000)
T22D4 000:601.888 - 0.011ms returns 0
T22D4 000:601.896 JLINK_WriteReg(R12, 0x00000000)
T22D4 000:601.903 - 0.010ms returns 0
T22D4 000:601.911 JLINK_WriteReg(R13 (SP), 0x20001000)
T22D4 000:601.918 - 0.011ms returns 0
T22D4 000:601.926 JLINK_WriteReg(R14, 0x20000001)
T22D4 000:601.933 - 0.011ms returns 0
T22D4 000:601.941 JLINK_WriteReg(R15 (PC), 0x20000102)
T22D4 000:601.948 - 0.010ms returns 0
T22D4 000:601.956 JLINK_WriteReg(XPSR, 0x01000000)
T22D4 000:601.964 - 0.011ms returns 0
T22D4 000:601.971 JLINK_WriteReg(MSP, 0x20001000)
T22D4 000:601.979 - 0.010ms returns 0
T22D4 000:601.986 JLINK_WriteReg(PSP, 0x20001000)
T22D4 000:601.993 - 0.010ms returns 0
T22D4 000:602.001 JLINK_WriteReg(CFBP, 0x00000000)
T22D4 000:602.008 - 0.010ms returns 0
T22D4 000:602.016 JLINK_SetBPEx(Addr = 0x20000000, Type = 0xFFFFFFF2)
T22D4 000:602.024 - 0.011ms returns 0x00000007
T22D4 000:602.032 JLINK_Go()
T22D4 000:602.048   CPU_ReadMem(4 bytes @ 0xE0001000)
T22D4 000:605.505 - 3.479ms
T22D4 000:605.519 JLINK_IsHalted()
T22D4 000:606.016 - 0.502ms returns FALSE
T22D4 000:606.031 JLINK_HasError()
T22D4 000:611.012 JLINK_IsHalted()
T22D4 000:611.562 - 0.554ms returns FALSE
T22D4 000:611.572 JLINK_HasError()
T22D4 000:613.009 JLINK_IsHalted()
T22D4 000:613.581 - 0.576ms returns FALSE
T22D4 000:613.592 JLINK_HasError()
T22D4 000:614.996 JLINK_IsHalted()
T22D4 000:615.538 - 0.546ms returns FALSE
T22D4 000:615.547 JLINK_HasError()
T22D4 000:616.996 JLINK_IsHalted()
T22D4 000:617.518 - 0.527ms returns FALSE
T22D4 000:617.528 JLINK_HasError()
T22D4 000:618.988 JLINK_IsHalted()
T22D4 000:621.984   CPU_ReadMem(2 bytes @ 0x20000000)
T22D4 000:622.482 - 3.498ms returns TRUE
T22D4 000:622.491 JLINK_ReadReg(R15 (PC))
T22D4 000:622.500 - 0.011ms returns 0x20000000
T22D4 000:622.507 JLINK_ClrBPEx(BPHandle = 0x00000007)
T22D4 000:622.514 - 0.010ms returns 0x00
T22D4 000:622.522 JLINK_ReadReg(R0)
T22D4 000:622.529 - 0.010ms returns 0x00000000
T22D4 000:622.790 JLINK_WriteMem(0x200001B0, 0x250 Bytes, ...)
T22D4 000:622.832   Data:  11 46 09 68 01 43 11 60 70 47 00 00 04 24 01 40 ...
T22D4 000:622.849   CPU_WriteMem(592 bytes @ 0x200001B0)
T22D4 000:626.280 - 3.498ms returns 0x250
T22D4 000:626.294 JLINK_WriteMem(0x20000400, 0x1B0 Bytes, ...)
T22D4 000:626.301   Data:  F3 FA 01 20 8D F8 1A 00 15 48 02 90 01 20 8D F8 ...
T22D4 000:626.315   CPU_WriteMem(432 bytes @ 0x20000400)
T22D4 000:629.005 - 2.716ms returns 0x1B0
T22D4 000:629.017 JLINK_HasError()
T22D4 000:629.025 JLINK_WriteReg(R0, 0x08000C00)
T22D4 000:629.034 - 0.011ms returns 0
T22D4 000:629.041 JLINK_WriteReg(R1, 0x00000400)
T22D4 000:629.048 - 0.010ms returns 0
T22D4 000:629.056 JLINK_WriteReg(R2, 0x200001B0)
T22D4 000:629.063 - 0.010ms returns 0
T22D4 000:629.070 JLINK_WriteReg(R3, 0x00000000)
T22D4 000:629.077 - 0.010ms returns 0
T22D4 000:629.084 JLINK_WriteReg(R4, 0x00000000)
T22D4 000:629.091 - 0.010ms returns 0
T22D4 000:629.099 JLINK_WriteReg(R5, 0x00000000)
T22D4 000:629.106 - 0.010ms returns 0
T22D4 000:629.113 JLINK_WriteReg(R6, 0x00000000)
T22D4 000:629.120 - 0.010ms returns 0
T22D4 000:629.127 JLINK_WriteReg(R7, 0x00000000)
T22D4 000:629.134 - 0.010ms returns 0
T22D4 000:629.142 JLINK_WriteReg(R8, 0x00000000)
T22D4 000:629.148 - 0.010ms returns 0
T22D4 000:629.156 JLINK_WriteReg(R9, 0x200001A8)
T22D4 000:629.163 - 0.010ms returns 0
T22D4 000:629.170 JLINK_WriteReg(R10, 0x00000000)
T22D4 000:629.177 - 0.010ms returns 0
T22D4 000:629.184 JLINK_WriteReg(R11, 0x00000000)
T22D4 000:629.191 - 0.010ms returns 0
T22D4 000:629.199 JLINK_WriteReg(R12, 0x00000000)
T22D4 000:629.206 - 0.010ms returns 0
T22D4 000:629.213 JLINK_WriteReg(R13 (SP), 0x20001000)
T22D4 000:629.220 - 0.010ms returns 0
T22D4 000:629.228 JLINK_WriteReg(R14, 0x20000001)
T22D4 000:629.235 - 0.010ms returns 0
T22D4 000:629.242 JLINK_WriteReg(R15 (PC), 0x20000102)
T22D4 000:629.249 - 0.010ms returns 0
T22D4 000:629.256 JLINK_WriteReg(XPSR, 0x01000000)
T22D4 000:629.264 - 0.010ms returns 0
T22D4 000:629.271 JLINK_WriteReg(MSP, 0x20001000)
T22D4 000:629.278 - 0.010ms returns 0
T22D4 000:629.285 JLINK_WriteReg(PSP, 0x20001000)
T22D4 000:629.292 - 0.010ms returns 0
T22D4 000:629.299 JLINK_WriteReg(CFBP, 0x00000000)
T22D4 000:629.306 - 0.010ms returns 0
T22D4 000:629.314 JLINK_SetBPEx(Addr = 0x20000000, Type = 0xFFFFFFF2)
T22D4 000:629.322 - 0.011ms returns 0x00000008
T22D4 000:629.329 JLINK_Go()
T22D4 000:629.340   CPU_ReadMem(4 bytes @ 0xE0001000)
T22D4 000:632.788 - 3.467ms
T22D4 000:632.803 JLINK_IsHalted()
T22D4 000:633.356 - 0.558ms returns FALSE
T22D4 000:633.367 JLINK_HasError()
T22D4 000:637.922 JLINK_IsHalted()
T22D4 000:638.438 - 0.520ms returns FALSE
T22D4 000:638.448 JLINK_HasError()
T22D4 000:639.915 JLINK_IsHalted()
T22D4 000:640.460 - 0.549ms returns FALSE
T22D4 000:640.469 JLINK_HasError()
T22D4 000:641.913 JLINK_IsHalted()
T22D4 000:642.429 - 0.525ms returns FALSE
T22D4 000:642.445 JLINK_HasError()
T22D4 000:643.901 JLINK_IsHalted()
T22D4 000:644.437 - 0.540ms returns FALSE
T22D4 000:644.446 JLINK_HasError()
T22D4 000:645.903 JLINK_IsHalted()
T22D4 000:648.896   CPU_ReadMem(2 bytes @ 0x20000000)
T22D4 000:649.435 - 3.536ms returns TRUE
T22D4 000:649.444 JLINK_ReadReg(R15 (PC))
T22D4 000:649.453 - 0.012ms returns 0x20000000
T22D4 000:649.461 JLINK_ClrBPEx(BPHandle = 0x00000008)
T22D4 000:649.469 - 0.011ms returns 0x00
T22D4 000:649.477 JLINK_ReadReg(R0)
T22D4 000:649.484 - 0.010ms returns 0x00000000
T22D4 000:649.763 JLINK_WriteMem(0x200001B0, 0x250 Bytes, ...)
T22D4 000:649.774   Data:  05 90 6A 46 04 21 0B 48 00 F0 E6 F8 04 21 09 48 ...
T22D4 000:649.789   CPU_WriteMem(592 bytes @ 0x200001B0)
T22D4 000:653.280 - 3.524ms returns 0x250
T22D4 000:653.294 JLINK_WriteMem(0x20000400, 0x1B0 Bytes, ...)
T22D4 000:653.301   Data:  04 F1 08 00 40 58 40 F0 40 01 05 EB 85 00 82 00 ...
T22D4 000:653.314   CPU_WriteMem(432 bytes @ 0x20000400)
T22D4 000:656.050 - 2.761ms returns 0x1B0
T22D4 000:656.061 JLINK_HasError()
T22D4 000:656.070 JLINK_WriteReg(R0, 0x08001000)
T22D4 000:656.120 - 0.056ms returns 0
T22D4 000:656.130 JLINK_WriteReg(R1, 0x00000400)
T22D4 000:656.138 - 0.011ms returns 0
T22D4 000:656.145 JLINK_WriteReg(R2, 0x200001B0)
T22D4 000:656.153 - 0.010ms returns 0
T22D4 000:656.161 JLINK_WriteReg(R3, 0x00000000)
T22D4 000:656.168 - 0.010ms returns 0
T22D4 000:656.175 JLINK_WriteReg(R4, 0x00000000)
T22D4 000:656.183 - 0.010ms returns 0
T22D4 000:656.190 JLINK_WriteReg(R5, 0x00000000)
T22D4 000:656.198 - 0.010ms returns 0
T22D4 000:656.205 JLINK_WriteReg(R6, 0x00000000)
T22D4 000:656.213 - 0.010ms returns 0
T22D4 000:656.220 JLINK_WriteReg(R7, 0x00000000)
T22D4 000:656.227 - 0.010ms returns 0
T22D4 000:656.235 JLINK_WriteReg(R8, 0x00000000)
T22D4 000:656.242 - 0.010ms returns 0
T22D4 000:656.250 JLINK_WriteReg(R9, 0x200001A8)
T22D4 000:656.257 - 0.010ms returns 0
T22D4 000:656.265 JLINK_WriteReg(R10, 0x00000000)
T22D4 000:656.272 - 0.010ms returns 0
T22D4 000:656.280 JLINK_WriteReg(R11, 0x00000000)
T22D4 000:656.287 - 0.010ms returns 0
T22D4 000:656.295 JLINK_WriteReg(R12, 0x00000000)
T22D4 000:656.302 - 0.010ms returns 0
T22D4 000:656.310 JLINK_WriteReg(R13 (SP), 0x20001000)
T22D4 000:656.317 - 0.011ms returns 0
T22D4 000:656.325 JLINK_WriteReg(R14, 0x20000001)
T22D4 000:656.332 - 0.010ms returns 0
T22D4 000:656.340 JLINK_WriteReg(R15 (PC), 0x20000102)
T22D4 000:656.348 - 0.011ms returns 0
T22D4 000:656.355 JLINK_WriteReg(XPSR, 0x01000000)
T22D4 000:656.363 - 0.010ms returns 0
T22D4 000:656.370 JLINK_WriteReg(MSP, 0x20001000)
T22D4 000:656.378 - 0.010ms returns 0
T22D4 000:656.385 JLINK_WriteReg(PSP, 0x20001000)
T22D4 000:656.392 - 0.011ms returns 0
T22D4 000:656.401 JLINK_WriteReg(CFBP, 0x00000000)
T22D4 000:656.408 - 0.010ms returns 0
T22D4 000:656.416 JLINK_SetBPEx(Addr = 0x20000000, Type = 0xFFFFFFF2)
T22D4 000:656.424 - 0.011ms returns 0x00000009
T22D4 000:656.432 JLINK_Go()
T22D4 000:656.442   CPU_ReadMem(4 bytes @ 0xE0001000)
T22D4 000:660.026 - 3.616ms
T22D4 000:660.062 JLINK_IsHalted()
T22D4 000:660.553 - 0.504ms returns FALSE
T22D4 000:660.578 JLINK_HasError()
T22D4 000:661.845 JLINK_IsHalted()
T22D4 000:662.397 - 0.562ms returns FALSE
T22D4 000:662.422 JLINK_HasError()
T22D4 000:663.839 JLINK_IsHalted()
T22D4 000:664.416 - 0.596ms returns FALSE
T22D4 000:664.446 JLINK_HasError()
T22D4 000:681.780 JLINK_IsHalted()
T22D4 000:684.850   CPU_ReadMem(2 bytes @ 0x20000000)
T22D4 000:685.418 - 3.644ms returns TRUE
T22D4 000:685.431 JLINK_ReadReg(R15 (PC))
T22D4 000:685.440 - 0.012ms returns 0x20000000
T22D4 000:685.448 JLINK_ClrBPEx(BPHandle = 0x00000009)
T22D4 000:685.455 - 0.010ms returns 0x00
T22D4 000:685.463 JLINK_ReadReg(R0)
T22D4 000:685.470 - 0.010ms returns 0x00000000
T22D4 000:686.127 JLINK_WriteMem(0x200001B0, 0x250 Bytes, ...)
T22D4 000:686.141   Data:  FE E7 04 EB 84 00 81 00 05 F1 08 00 40 58 20 F4 ...
T22D4 000:686.157   CPU_WriteMem(592 bytes @ 0x200001B0)
T22D4 000:689.699 - 3.580ms returns 0x250
T22D4 000:689.713 JLINK_WriteMem(0x20000400, 0x1B0 Bytes, ...)
T22D4 000:689.720   Data:  00 21 00 25 00 F0 00 46 B6 F1 00 4F 02 D1 1D 4E ...
T22D4 000:689.734   CPU_WriteMem(432 bytes @ 0x20000400)
T22D4 000:692.486 - 2.785ms returns 0x1B0
T22D4 000:692.506 JLINK_HasError()
T22D4 000:692.515 JLINK_WriteReg(R0, 0x08001400)
T22D4 000:692.525 - 0.013ms returns 0
T22D4 000:692.533 JLINK_WriteReg(R1, 0x00000400)
T22D4 000:692.540 - 0.010ms returns 0
T22D4 000:692.547 JLINK_WriteReg(R2, 0x200001B0)
T22D4 000:692.554 - 0.010ms returns 0
T22D4 000:692.562 JLINK_WriteReg(R3, 0x00000000)
T22D4 000:692.569 - 0.010ms returns 0
T22D4 000:692.576 JLINK_WriteReg(R4, 0x00000000)
T22D4 000:692.583 - 0.010ms returns 0
T22D4 000:692.591 JLINK_WriteReg(R5, 0x00000000)
T22D4 000:692.598 - 0.010ms returns 0
T22D4 000:692.605 JLINK_WriteReg(R6, 0x00000000)
T22D4 000:692.612 - 0.010ms returns 0
T22D4 000:692.620 JLINK_WriteReg(R7, 0x00000000)
T22D4 000:692.627 - 0.010ms returns 0
T22D4 000:692.634 JLINK_WriteReg(R8, 0x00000000)
T22D4 000:692.641 - 0.010ms returns 0
T22D4 000:692.649 JLINK_WriteReg(R9, 0x200001A8)
T22D4 000:692.658 - 0.015ms returns 0
T22D4 000:692.668 JLINK_WriteReg(R10, 0x00000000)
T22D4 000:692.675 - 0.010ms returns 0
T22D4 000:692.682 JLINK_WriteReg(R11, 0x00000000)
T22D4 000:692.689 - 0.010ms returns 0
T22D4 000:692.697 JLINK_WriteReg(R12, 0x00000000)
T22D4 000:692.704 - 0.010ms returns 0
T22D4 000:692.711 JLINK_WriteReg(R13 (SP), 0x20001000)
T22D4 000:692.718 - 0.010ms returns 0
T22D4 000:692.726 JLINK_WriteReg(R14, 0x20000001)
T22D4 000:692.734 - 0.011ms returns 0
T22D4 000:692.741 JLINK_WriteReg(R15 (PC), 0x20000102)
T22D4 000:692.749 - 0.010ms returns 0
T22D4 000:692.756 JLINK_WriteReg(XPSR, 0x01000000)
T22D4 000:692.763 - 0.010ms returns 0
T22D4 000:692.770 JLINK_WriteReg(MSP, 0x20001000)
T22D4 000:692.777 - 0.010ms returns 0
T22D4 000:692.785 JLINK_WriteReg(PSP, 0x20001000)
T22D4 000:692.792 - 0.010ms returns 0
T22D4 000:692.799 JLINK_WriteReg(CFBP, 0x00000000)
T22D4 000:692.806 - 0.010ms returns 0
T22D4 000:692.814 JLINK_SetBPEx(Addr = 0x20000000, Type = 0xFFFFFFF2)
T22D4 000:692.822 - 0.011ms returns 0x0000000A
T22D4 000:692.829 JLINK_Go()
T22D4 000:692.841   CPU_ReadMem(4 bytes @ 0xE0001000)
T22D4 000:696.333 - 3.511ms
T22D4 000:696.346 JLINK_IsHalted()
T22D4 000:696.880 - 0.544ms returns FALSE
T22D4 000:696.897 JLINK_HasError()
T22D4 000:698.718 JLINK_IsHalted()
T22D4 000:699.237 - 0.541ms returns FALSE
T22D4 000:699.272 JLINK_HasError()
T22D4 000:702.844 JLINK_IsHalted()
T22D4 000:703.435 - 0.599ms returns FALSE
T22D4 000:703.450 JLINK_HasError()
T22D4 000:704.842 JLINK_IsHalted()
T22D4 000:705.416 - 0.585ms returns FALSE
T22D4 000:705.434 JLINK_HasError()
T22D4 000:708.828 JLINK_IsHalted()
T22D4 000:711.793   CPU_ReadMem(2 bytes @ 0x20000000)
T22D4 000:712.264 - 3.448ms returns TRUE
T22D4 000:712.285 JLINK_ReadReg(R15 (PC))
T22D4 000:712.296 - 0.015ms returns 0x20000000
T22D4 000:712.306 JLINK_ClrBPEx(BPHandle = 0x0000000A)
T22D4 000:712.315 - 0.012ms returns 0x00
T22D4 000:712.323 JLINK_ReadReg(R0)
T22D4 000:712.330 - 0.010ms returns 0x00000000
T22D4 000:712.639 JLINK_WriteMem(0x200001B0, 0x250 Bytes, ...)
T22D4 000:712.652   Data:  01 22 00 21 0E 20 00 F0 21 F8 00 22 11 46 0F 20 ...
T22D4 000:712.670   CPU_WriteMem(592 bytes @ 0x200001B0)
T22D4 000:716.102 - 3.474ms returns 0x250
T22D4 000:716.120 JLINK_WriteMem(0x20000400, 0x1B0 Bytes, ...)
T22D4 000:716.129   Data:  2A 48 40 68 C0 F3 83 43 28 48 40 68 00 F0 00 50 ...
T22D4 000:716.145   CPU_WriteMem(432 bytes @ 0x20000400)
T22D4 000:718.862 - 2.755ms returns 0x1B0
T22D4 000:718.883 JLINK_HasError()
T22D4 000:718.893 JLINK_WriteReg(R0, 0x08001800)
T22D4 000:718.904 - 0.015ms returns 0
T22D4 000:718.913 JLINK_WriteReg(R1, 0x00000400)
T22D4 000:718.921 - 0.012ms returns 0
T22D4 000:718.929 JLINK_WriteReg(R2, 0x200001B0)
T22D4 000:718.937 - 0.011ms returns 0
T22D4 000:718.945 JLINK_WriteReg(R3, 0x00000000)
T22D4 000:718.953 - 0.011ms returns 0
T22D4 000:718.961 JLINK_WriteReg(R4, 0x00000000)
T22D4 000:718.969 - 0.011ms returns 0
T22D4 000:718.977 JLINK_WriteReg(R5, 0x00000000)
T22D4 000:718.985 - 0.011ms returns 0
T22D4 000:718.993 JLINK_WriteReg(R6, 0x00000000)
T22D4 000:719.001 - 0.012ms returns 0
T22D4 000:719.009 JLINK_WriteReg(R7, 0x00000000)
T22D4 000:719.017 - 0.011ms returns 0
T22D4 000:719.025 JLINK_WriteReg(R8, 0x00000000)
T22D4 000:719.033 - 0.011ms returns 0
T22D4 000:719.041 JLINK_WriteReg(R9, 0x200001A8)
T22D4 000:719.049 - 0.011ms returns 0
T22D4 000:719.057 JLINK_WriteReg(R10, 0x00000000)
T22D4 000:719.065 - 0.011ms returns 0
T22D4 000:719.073 JLINK_WriteReg(R11, 0x00000000)
T22D4 000:719.081 - 0.011ms returns 0
T22D4 000:719.089 JLINK_WriteReg(R12, 0x00000000)
T22D4 000:719.097 - 0.011ms returns 0
T22D4 000:719.105 JLINK_WriteReg(R13 (SP), 0x20001000)
T22D4 000:719.113 - 0.010ms returns 0
T22D4 000:719.120 JLINK_WriteReg(R14, 0x20000001)
T22D4 000:719.127 - 0.011ms returns 0
T22D4 000:719.136 JLINK_WriteReg(R15 (PC), 0x20000102)
T22D4 000:719.144 - 0.011ms returns 0
T22D4 000:719.152 JLINK_WriteReg(XPSR, 0x01000000)
T22D4 000:719.161 - 0.014ms returns 0
T22D4 000:719.173 JLINK_WriteReg(MSP, 0x20001000)
T22D4 000:719.181 - 0.011ms returns 0
T22D4 000:719.189 JLINK_WriteReg(PSP, 0x20001000)
T22D4 000:719.197 - 0.011ms returns 0
T22D4 000:719.205 JLINK_WriteReg(CFBP, 0x00000000)
T22D4 000:719.213 - 0.011ms returns 0
T22D4 000:719.221 JLINK_SetBPEx(Addr = 0x20000000, Type = 0xFFFFFFF2)
T22D4 000:719.230 - 0.012ms returns 0x0000000B
T22D4 000:719.239 JLINK_Go()
T22D4 000:719.252   CPU_ReadMem(4 bytes @ 0xE0001000)
T22D4 000:722.747 - 3.522ms
T22D4 000:722.769 JLINK_IsHalted()
T22D4 000:723.336 - 0.579ms returns FALSE
T22D4 000:723.355 JLINK_HasError()
T22D4 000:724.767 JLINK_IsHalted()
T22D4 000:725.335 - 0.579ms returns FALSE
T22D4 000:725.353 JLINK_HasError()
T22D4 000:728.754 JLINK_IsHalted()
T22D4 000:729.225 - 0.475ms returns FALSE
T22D4 000:729.235 JLINK_HasError()
T22D4 000:730.748 JLINK_IsHalted()
T22D4 000:731.266 - 0.523ms returns FALSE
T22D4 000:731.277 JLINK_HasError()
T22D4 000:732.746 JLINK_IsHalted()
T22D4 000:733.293 - 0.557ms returns FALSE
T22D4 000:733.311 JLINK_HasError()
T22D4 000:734.732 JLINK_IsHalted()
T22D4 000:735.193 - 0.465ms returns FALSE
T22D4 000:735.203 JLINK_HasError()
T22D4 000:736.730 JLINK_IsHalted()
T22D4 000:739.697   CPU_ReadMem(2 bytes @ 0x20000000)
T22D4 000:740.182 - 3.462ms returns TRUE
T22D4 000:740.200 JLINK_ReadReg(R15 (PC))
T22D4 000:740.210 - 0.013ms returns 0x20000000
T22D4 000:740.236 JLINK_ClrBPEx(BPHandle = 0x0000000B)
T22D4 000:740.244 - 0.011ms returns 0x00
T22D4 000:740.252 JLINK_ReadReg(R0)
T22D4 000:740.259 - 0.010ms returns 0x00000000
T22D4 000:740.520 JLINK_WriteMem(0x200001B0, 0x250 Bytes, ...)
T22D4 000:740.531   Data:  F5 D1 2F 4A 12 68 02 F4 00 32 0A B9 00 BF FE E7 ...
T22D4 000:740.546   CPU_WriteMem(592 bytes @ 0x200001B0)
T22D4 000:744.017 - 3.510ms returns 0x250
T22D4 000:744.036 JLINK_WriteMem(0x20000400, 0x1B0 Bytes, ...)
T22D4 000:744.044   Data:  21 46 08 48 FF F7 22 FB 06 48 FF F7 C9 FC 4F F4 ...
T22D4 000:744.059   CPU_WriteMem(432 bytes @ 0x20000400)
T22D4 000:746.700 - 2.669ms returns 0x1B0
T22D4 000:746.711 JLINK_HasError()
T22D4 000:746.720 JLINK_WriteReg(R0, 0x08001C00)
T22D4 000:746.728 - 0.012ms returns 0
T22D4 000:746.736 JLINK_WriteReg(R1, 0x00000400)
T22D4 000:746.743 - 0.010ms returns 0
T22D4 000:746.751 JLINK_WriteReg(R2, 0x200001B0)
T22D4 000:746.758 - 0.010ms returns 0
T22D4 000:746.765 JLINK_WriteReg(R3, 0x00000000)
T22D4 000:746.772 - 0.010ms returns 0
T22D4 000:746.779 JLINK_WriteReg(R4, 0x00000000)
T22D4 000:746.786 - 0.010ms returns 0
T22D4 000:746.794 JLINK_WriteReg(R5, 0x00000000)
T22D4 000:746.801 - 0.010ms returns 0
T22D4 000:746.808 JLINK_WriteReg(R6, 0x00000000)
T22D4 000:746.815 - 0.010ms returns 0
T22D4 000:746.822 JLINK_WriteReg(R7, 0x00000000)
T22D4 000:746.829 - 0.010ms returns 0
T22D4 000:746.837 JLINK_WriteReg(R8, 0x00000000)
T22D4 000:746.844 - 0.010ms returns 0
T22D4 000:746.851 JLINK_WriteReg(R9, 0x200001A8)
T22D4 000:746.858 - 0.010ms returns 0
T22D4 000:746.865 JLINK_WriteReg(R10, 0x00000000)
T22D4 000:746.872 - 0.010ms returns 0
T22D4 000:746.880 JLINK_WriteReg(R11, 0x00000000)
T22D4 000:746.887 - 0.010ms returns 0
T22D4 000:746.894 JLINK_WriteReg(R12, 0x00000000)
T22D4 000:746.901 - 0.010ms returns 0
T22D4 000:746.908 JLINK_WriteReg(R13 (SP), 0x20001000)
T22D4 000:746.916 - 0.011ms returns 0
T22D4 000:746.923 JLINK_WriteReg(R14, 0x20000001)
T22D4 000:746.930 - 0.010ms returns 0
T22D4 000:746.938 JLINK_WriteReg(R15 (PC), 0x20000102)
T22D4 000:746.945 - 0.010ms returns 0
T22D4 000:746.952 JLINK_WriteReg(XPSR, 0x01000000)
T22D4 000:746.959 - 0.010ms returns 0
T22D4 000:746.966 JLINK_WriteReg(MSP, 0x20001000)
T22D4 000:746.973 - 0.010ms returns 0
T22D4 000:746.981 JLINK_WriteReg(PSP, 0x20001000)
T22D4 000:746.988 - 0.010ms returns 0
T22D4 000:746.995 JLINK_WriteReg(CFBP, 0x00000000)
T22D4 000:747.002 - 0.010ms returns 0
T22D4 000:747.010 JLINK_SetBPEx(Addr = 0x20000000, Type = 0xFFFFFFF2)
T22D4 000:747.017 - 0.011ms returns 0x0000000C
T22D4 000:747.025 JLINK_Go()
T22D4 000:747.041   CPU_ReadMem(4 bytes @ 0xE0001000)
T22D4 000:750.553 - 3.535ms
T22D4 000:750.566 JLINK_IsHalted()
T22D4 000:751.105 - 0.544ms returns FALSE
T22D4 000:751.115 JLINK_HasError()
T22D4 000:752.671 JLINK_IsHalted()
T22D4 000:753.096 - 0.429ms returns FALSE
T22D4 000:753.105 JLINK_HasError()
T22D4 000:754.673 JLINK_IsHalted()
T22D4 000:755.188 - 0.524ms returns FALSE
T22D4 000:755.203 JLINK_HasError()
T22D4 000:756.659 JLINK_IsHalted()
T22D4 000:757.187 - 0.540ms returns FALSE
T22D4 000:757.205 JLINK_HasError()
T22D4 000:758.661 JLINK_IsHalted()
T22D4 000:759.207 - 0.550ms returns FALSE
T22D4 000:759.216 JLINK_HasError()
T22D4 000:760.651 JLINK_IsHalted()
T22D4 000:761.175 - 0.529ms returns FALSE
T22D4 000:761.185 JLINK_HasError()
T22D4 000:764.631 JLINK_IsHalted()
T22D4 000:767.608   CPU_ReadMem(2 bytes @ 0x20000000)
T22D4 000:768.176 - 3.549ms returns TRUE
T22D4 000:768.188 JLINK_ReadReg(R15 (PC))
T22D4 000:768.197 - 0.012ms returns 0x20000000
T22D4 000:768.222 JLINK_ClrBPEx(BPHandle = 0x0000000C)
T22D4 000:768.229 - 0.010ms returns 0x00
T22D4 000:768.237 JLINK_ReadReg(R0)
T22D4 000:768.244 - 0.010ms returns 0x00000000
T22D4 000:768.670 JLINK_WriteMem(0x200001B0, 0x250 Bytes, ...)
T22D4 000:768.682   Data:  1F 04 01 23 A3 40 1A 43 00 EB 91 13 1A 60 10 BD ...
T22D4 000:768.697   CPU_WriteMem(592 bytes @ 0x200001B0)
T22D4 000:772.147 - 3.484ms returns 0x250
T22D4 000:772.160 JLINK_WriteMem(0x20000400, 0x1B0 Bytes, ...)
T22D4 000:772.167   Data:  FF FF FF FF FF FF FF FF FF FF FF FF FF FF FF FF ...
T22D4 000:772.181   CPU_WriteMem(432 bytes @ 0x20000400)
T22D4 000:774.816 - 2.661ms returns 0x1B0
T22D4 000:774.827 JLINK_HasError()
T22D4 000:774.836 JLINK_WriteReg(R0, 0x08002000)
T22D4 000:774.845 - 0.012ms returns 0
T22D4 000:774.853 JLINK_WriteReg(R1, 0x00000138)
T22D4 000:774.860 - 0.011ms returns 0
